;$FILEVERSION=1.1
;$STARTTIME=46090.4987418056
;
;   Start time: 09/03/2026 11:58:11.292.0
;   Generated by PCAN-View v5.3.3.958
;
;   Message Number
;   |         Time Offset (ms)
;   |         |        Type
;   |         |        |        ID (hex)
;   |         |        |        |     Data Length
;   |         |        |        |     |   Data Bytes (hex) ...
;   |         |        |        |     |   |
;---+--   ----+----  --+--  ----+---  +  -+ -- -- -- -- -- -- --
     1)         9.8  Rx         01FF  8  00 00 00 00 00 00 00 00 
     2)        29.7  Rx         01FF  8  00 00 00 00 00 00 00 00 
     3)        30.5  Rx         010A  8  00 00 00 00 00 00 00 00 
     4)        30.8  Rx         010B  8  00 00 F9 FF 18 00 6A 12 
     5)        31.0  Rx         010C  8  00 00 00 00 00 CA 9A 3B 
     6)        31.2  Rx         010D  8  00 00 00 00 00 00 00 00 
     7)        31.5  Rx         010E  8  16 00 1D 00 00 00 00 00 
     8)        31.7  Rx         010F  8  00 00 00 00 00 00 00 00 
     9)        32.0  Rx         0110  8  02 21 84 03 00 10 02 00 
    10)        32.2  Rx         0111  8  00 00 00 00 00 00 00 00 
    11)        32.5  Rx         0112  8  03 00 00 00 00 00 00 00 
    12)        49.9  Rx         01FF  8  00 00 00 00 00 00 00 00 
    13)        50.1  Rx         0700  8  00 00 00 00 00 00 00 00 
    14)        50.4  Rx         0701  8  0A 0A 00 06 00 00 01 00 
    15)        50.6  Rx         0702  8  00 00 00 00 00 00 00 00 
    16)        69.9  Rx         01FF  8  00 00 00 00 00 00 00 00 
    17)        70.1  Rx         0100  8  1B 44 22 00 64 80 84 03 
    18)        70.4  Rx         0102  8  03 00 00 00 11 02 C3 24 
    19)        70.6  Rx         0103  8  B5 3F 3D 32 97 CD BB E0 
    20)        70.9  Rx         0104  8  B3 81 1F 01 00 00 00 00 
    21)        71.1  Rx         0105  8  81 00 00 00 00 00 01 01 
    22)        71.3  Rx         0108  8  00 00 00 02 00 00 01 00 
    23)        71.6  Rx         0109  8  00 00 00 00 00 00 00 7C 
    24)        71.8  Rx         0113  8  18 24 01 00 00 01 00 00 
    25)        89.8  Rx         01FF  8  00 00 00 00 00 00 00 00 
    26)       109.7  Rx         01FF  8  00 00 00 00 00 00 00 00 
    27)       110.5  Rx         010A  8  00 00 00 00 00 00 00 00 
    28)       110.8  Rx         010B  8  00 00 F9 FF 18 00 6A 12 
    29)       111.0  Rx         010C  8  00 00 00 00 00 CA 9A 3B 
    30)       111.2  Rx         010D  8  00 00 00 00 00 00 00 00 
    31)       111.5  Rx         010E  8  16 00 1D 00 00 00 00 00 
    32)       111.7  Rx         010F  8  00 00 00 00 00 00 00 00 
    33)       112.0  Rx         0110  8  02 21 84 03 00 10 02 00 
    34)       112.2  Rx         0111  8  00 00 00 00 00 00 00 00 
    35)       112.5  Rx         0112  8  03 00 00 00 00 00 00 00 
    36)       130.0  Rx         01FF  8  00 00 00 00 00 00 00 00 
    37)       130.3  Rx         07A3  8  00 00 00 00 00 00 00 00 
    38)       130.5  Rx         0700  8  00 00 00 00 00 00 00 00 
    39)       130.8  Rx         0701  8  0A 0A 00 06 00 00 01 00 
    40)       131.0  Rx         0702  8  00 00 00 00 00 00 00 00 
    41)       149.8  Rx         01FF  8  00 00 00 00 00 00 00 00 
    42)       170.0  Rx         01FF  8  00 00 00 00 00 00 00 00 
    43)       170.2  Rx         0100  8  1B 44 22 00 64 80 85 03 
    44)       170.4  Rx         0102  8  03 00 00 00 11 02 77 24 
    45)       170.7  Rx         0103  8  B5 3F 3D 32 97 CD BB E0 
    46)       171.0  Rx         0104  8  B3 81 1F 01 00 00 00 00 
    47)       171.2  Rx         0105  8  81 00 00 00 00 00 01 01 
    48)       171.4  Rx         0108  8  00 00 00 02 00 00 01 00 
    49)       171.7  Rx         0109  8  00 00 00 00 00 00 00 7C 
    50)       171.9  Rx         0113  8  18 24 01 00 00 01 00 00 
    51)       172.2  Rx         0150  8  00 00 00 20 00 00 00 00 
    52)       172.4  Rx         0151  8  00 00 00 00 99 14 00 00 
    53)       172.7  Rx         0152  8  00 00 00 00 00 00 00 00 
    54)       172.9  Rx         0153  8  15 00 00 00 5F 01 1F 00 
    55)       173.1  Rx         0154  8  C2 15 00 00 00 00 F2 11 
    56)       173.4  Rx         0155  8  06 00 3A 06 BA 12 33 14 
    57)       173.6  Rx         0156  8  00 00 00 00 00 00 65 0A 
    58)       173.9  Rx         0157  8  00 00 00 00 CC 6A CC 6A 
    59)       174.1  Rx         0158  8  00 00 00 00 00 00 00 00 
    60)       174.4  Rx         0159  8  2E 00 00 00 00 00 00 00 
    61)       189.8  Rx         01FF  8  00 00 00 00 00 00 00 00 
    62)       190.6  Rx         010A  8  00 00 00 00 00 00 00 00 
    63)       190.8  Rx         010B  8  00 00 F9 FF 18 00 6A 12 
    64)       191.1  Rx         010C  8  00 00 00 00 00 CA 9A 3B 
    65)       191.3  Rx         010D  8  00 00 00 00 00 00 00 00 
    66)       191.6  Rx         010E  8  16 00 1D 00 00 00 00 00 
    67)       191.8  Rx         010F  8  00 00 00 00 00 00 00 00 
    68)       192.0  Rx         0110  8  02 21 84 03 00 10 02 00 
    69)       192.3  Rx         0111  8  00 00 00 00 00 00 00 00 
    70)       192.6  Rx         0112  8  03 00 00 00 00 00 00 00 
    71)       209.8  Rx         01FF  8  00 00 00 00 00 00 00 00 
    72)       211.8  Rx         0700  8  00 00 00 00 00 00 00 00 
    73)       212.1  Rx         0701  8  0A 0A 00 06 00 00 01 00 
    74)       212.3  Rx         0702  8  00 00 00 00 00 00 00 00 
    75)       229.8  Rx         01FF  8  00 00 00 00 00 00 00 00 
    76)       249.8  Rx         01FF  8  00 00 00 00 00 00 00 00 
    77)       269.9  Rx         01FF  8  00 00 00 00 00 00 00 00 
    78)       270.1  Rx         0100  8  1B 44 22 00 64 80 84 03 
    79)       270.3  Rx         0102  8  03 00 00 00 11 02 85 24 
    80)       270.6  Rx         0103  8  B5 3F 3D 32 97 CD BB E0 
    81)       270.8  Rx         0104  8  B3 81 1F 01 00 00 00 00 
    82)       271.1  Rx         0105  8  81 00 00 00 00 00 01 01 
    83)       271.3  Rx         0108  8  00 00 00 02 00 00 01 00 
    84)       271.6  Rx         0109  8  00 00 00 00 00 00 00 7C 
    85)       271.8  Rx         010A  8  00 00 00 00 00 00 00 00 
    86)       272.0  Rx         010B  8  00 00 F9 FF 18 00 6A 12 
    87)       272.3  Rx         010C  8  00 00 00 00 00 CA 9A 3B 
    88)       272.5  Rx         010D  8  00 00 00 00 00 00 00 00 
    89)       272.8  Rx         010E  8  16 00 1D 00 00 00 00 00 
    90)       273.0  Rx         010F  8  00 00 00 00 00 00 00 00 
    91)       273.3  Rx         0110  8  02 21 84 03 00 10 02 00 
    92)       273.5  Rx         0111  8  00 00 00 00 00 00 00 00 
    93)       273.8  Rx         0112  8  03 00 00 00 00 00 00 00 
    94)       274.0  Rx         0113  8  18 24 01 00 00 01 00 00 
    95)       290.0  Rx         0700  8  00 00 00 00 00 00 00 00 
    96)       290.2  Rx         01FF  8  00 00 00 00 00 00 00 00 
    97)       290.5  Rx         0701  8  0A 0A 00 06 00 00 01 00 
    98)       290.7  Rx         0702  8  00 00 00 00 00 00 00 00 
    99)       309.8  Rx         01FF  8  00 00 00 00 00 00 00 00 
   100)       329.9  Rx         01FF  8  00 00 00 00 00 00 00 00 
   101)       349.7  Rx         01FF  8  00 00 00 00 00 00 00 00 
   102)       350.5  Rx         010A  8  00 00 00 00 00 00 00 00 
   103)       350.8  Rx         010B  8  00 00 F9 FF 18 00 6A 12 
   104)       351.0  Rx         010C  8  00 00 00 00 00 CA 9A 3B 
   105)       351.2  Rx         010D  8  00 00 00 00 00 00 00 00 
   106)       351.5  Rx         010E  8  16 00 1D 00 00 00 00 00 
   107)       351.7  Rx         010F  8  00 00 00 00 00 00 00 00 
   108)       352.0  Rx         0110  8  02 21 84 03 00 10 02 00 
   109)       352.2  Rx         0111  8  00 00 00 00 00 00 00 00 
   110)       352.5  Rx         0112  8  03 00 00 00 00 00 00 00 
   111)       369.9  Rx         0700  8  00 00 00 00 00 00 00 00 
   112)       370.1  Rx         0100  8  1B 44 22 00 64 80 84 03 
   113)       370.3  Rx         0102  8  03 00 00 00 11 02 93 24 
   114)       370.6  Rx         0103  8  B5 3F 3D 32 97 CD BB E0 
   115)       370.9  Rx         0104  8  B3 81 1F 01 00 00 00 00 
   116)       371.1  Rx         0105  8  81 00 00 00 00 00 01 01 
   117)       371.3  Rx         0108  8  00 00 00 02 00 00 01 00 
   118)       371.6  Rx         0109  8  00 00 00 00 00 00 00 7C 
   119)       371.8  Rx         0113  8  18 24 01 00 00 01 00 00 
   120)       372.1  Rx         01FF  8  00 00 00 00 00 00 00 00 
   121)       372.3  Rx         0150  8  00 00 00 20 00 00 00 00 
   122)       372.6  Rx         0151  8  00 00 00 00 99 14 00 00 
   123)       372.8  Rx         0152  8  00 00 00 00 00 00 00 00 
   124)       373.1  Rx         0153  8  15 00 00 00 5F 01 1F 00 
   125)       373.3  Rx         0154  8  C2 15 00 00 00 00 F2 11 
   126)       373.5  Rx         0155  8  06 00 3A 06 BA 12 1D 14 
   127)       373.8  Rx         0156  8  00 00 00 00 00 00 65 0A 
   128)       374.0  Rx         0157  8  00 00 00 00 CC 6A CC 6A 
   129)       374.3  Rx         0158  8  00 00 00 00 00 00 00 00 
   130)       374.5  Rx         0159  8  2E 00 00 00 00 00 00 00 
   131)       374.7  Rx         0701  8  0A 0A 00 06 00 00 01 00 
   132)       375.0  Rx         0702  8  00 00 00 00 00 00 00 00 
   133)       389.8  Rx         01FF  8  00 00 00 00 00 00 00 00 
   134)       409.8  Rx         01FF  8  00 00 00 00 00 00 00 00 
   135)       429.7  Rx         01FF  8  00 00 00 00 00 00 00 00 
   136)       430.5  Rx         010A  8  00 00 00 00 00 00 00 00 
   137)       430.8  Rx         010B  8  00 00 F9 FF 18 00 6A 12 
   138)       431.0  Rx         010C  8  00 00 00 00 00 CA 9A 3B 
   139)       431.2  Rx         010D  8  00 00 00 00 00 00 00 00 
   140)       431.5  Rx         010E  8  16 00 1D 00 00 00 00 00 
   141)       431.7  Rx         010F  8  00 00 00 00 00 00 00 00 
   142)       432.0  Rx         0110  8  02 21 84 03 00 10 02 00 
   143)       432.2  Rx         0111  8  00 00 00 00 00 00 00 00 
   144)       432.5  Rx         0112  8  03 00 00 00 00 00 00 00 
   145)       449.8  Rx         0700  8  00 00 00 00 00 00 00 00 
   146)       450.1  Rx         01FF  8  00 00 00 00 00 00 00 00 
   147)       450.3  Rx         0701  8  0A 0A 00 06 00 00 01 00 
   148)       450.6  Rx         0702  8  00 00 00 00 00 00 00 00 
   149)       470.0  Rx         01FF  8  00 00 00 00 00 00 00 00 
   150)       470.2  Rx         0100  8  1B 44 22 00 64 80 84 03 
   151)       470.4  Rx         0102  8  03 00 00 00 11 02 4B 25 
   152)       470.6  Rx         0103  8  B5 3F 3D 32 97 CD BB E0 
   153)       470.9  Rx         0104  8  B3 81 1F 01 00 00 00 00 
   154)       471.2  Rx         0105  8  81 00 00 00 00 00 01 01 
   155)       471.4  Rx         0108  8  00 00 00 02 00 00 01 00 
   156)       471.7  Rx         0109  8  00 00 00 00 00 00 00 7C 
   157)       471.9  Rx         0113  8  18 24 01 00 00 01 00 00 
   158)       489.8  Rx         01FF  8  00 00 00 00 00 00 00 00 
   159)       509.8  Rx         01FF  8  00 00 00 00 00 00 00 00 
   160)       510.5  Rx         010A  8  00 00 00 00 00 00 00 00 
   161)       510.8  Rx         010B  8  00 00 F9 FF 18 00 6A 12 
   162)       511.0  Rx         010C  8  00 00 00 00 00 CA 9A 3B 
   163)       511.3  Rx         010D  8  00 00 00 00 00 00 00 00 
   164)       511.5  Rx         010E  8  16 00 1D 00 00 00 00 00 
   165)       511.7  Rx         010F  8  00 00 00 00 00 00 00 00 
   166)       512.0  Rx         0110  8  02 21 84 03 00 10 02 00 
   167)       512.2  Rx         0111  8  00 00 00 00 00 00 00 00 
   168)       512.5  Rx         0112  8  03 00 00 00 00 00 00 00 
   169)       529.8  Rx         01FF  8  00 00 00 00 00 00 00 00 
   170)       531.9  Rx         0700  8  00 00 00 00 00 00 00 00 
   171)       532.1  Rx         0701  8  0A 0A 00 06 00 00 01 00 
   172)       532.3  Rx         0702  8  00 00 00 00 00 00 00 00 
   173)       549.8  Rx         01FF  8  00 00 00 00 00 00 00 00 
   174)       570.0  Rx         01FF  8  00 00 00 00 00 00 00 00 
   175)       570.2  Rx         0100  8  1B 44 22 00 64 80 85 03 
   176)       570.4  Rx         0102  8  03 00 00 00 11 02 5C 24 
   177)       570.7  Rx         0103  8  B5 3F 3D 32 97 CD BB E0 
   178)       571.0  Rx         0104  8  B3 81 1F 01 00 00 00 00 
   179)       571.2  Rx         0105  8  81 00 00 00 00 00 01 01 
   180)       571.4  Rx         0108  8  00 00 00 02 00 00 01 00 
   181)       571.7  Rx         0109  8  00 00 00 00 00 00 00 7C 
   182)       571.9  Rx         0113  8  18 24 01 00 00 01 00 00 
   183)       572.2  Rx         0150  8  00 00 00 20 00 00 00 00 
   184)       572.4  Rx         0151  8  00 00 00 00 99 14 00 00 
   185)       572.7  Rx         0152  8  00 00 00 00 00 00 00 00 
   186)       572.9  Rx         0153  8  15 00 00 00 5F 01 1F 00 
   187)       573.2  Rx         0154  8  AC 15 00 00 00 00 F2 11 
   188)       573.4  Rx         0155  8  06 00 3A 06 BA 12 33 14 
   189)       573.6  Rx         0156  8  00 00 00 00 00 00 65 0A 
   190)       573.9  Rx         0157  8  00 00 00 00 CC 6A CC 6A 
   191)       574.1  Rx         0158  8  00 00 00 00 00 00 00 00 
   192)       574.4  Rx         0159  8  2E 00 00 00 00 00 00 00 
   193)       589.8  Rx         01FF  8  00 00 00 00 00 00 00 00 
   194)       590.5  Rx         010A  8  00 00 00 00 00 00 00 00 
   195)       590.8  Rx         010B  8  00 00 F9 FF 18 00 6A 12 
   196)       591.0  Rx         010C  8  00 00 00 00 00 CA 9A 3B 
   197)       591.3  Rx         010D  8  00 00 00 00 00 00 00 00 
   198)       591.5  Rx         010E  8  16 00 1D 00 00 00 00 00 
   199)       591.7  Rx         010F  8  00 00 00 00 00 00 00 00 
   200)       592.0  Rx         0110  8  02 21 84 03 00 10 02 00 
   201)       592.2  Rx         0111  8  00 00 00 00 00 00 00 00 
   202)       592.5  Rx         0112  8  03 00 00 00 00 00 00 00 
   203)       609.9  Rx         0700  8  00 00 00 00 00 00 00 00 
   204)       610.2  Rx         01FF  8  00 00 00 00 00 00 00 00 
   205)       610.4  Rx         0701  8  0A 0A 00 06 00 00 01 00 
   206)       610.7  Rx         0702  8  00 00 00 00 00 00 00 00 
   207)       629.8  Rx         01FF  8  00 00 00 00 00 00 00 00 
   208)       649.8  Rx         01FF  8  00 00 00 00 00 00 00 00 
   209)       669.9  Rx         01FF  8  00 00 00 00 00 00 00 00 
   210)       670.1  Rx         0100  8  1B 44 22 00 64 80 83 03 
   211)       670.4  Rx         0102  8  03 00 00 00 11 02 86 24 
   212)       670.6  Rx         0103  8  B5 3F 3D 32 97 CD BB E0 
   213)       670.9  Rx         0104  8  B3 81 1F 01 00 00 00 00 
   214)       671.1  Rx         0105  8  81 00 00 00 00 00 01 01 
   215)       671.3  Rx         0108  8  00 00 00 02 00 00 01 00 
   216)       671.6  Rx         0109  8  00 00 00 00 00 00 00 7C 
   217)       671.8  Rx         010A  8  00 00 00 00 00 00 00 00 
   218)       672.1  Rx         010B  8  00 00 F9 FF 18 00 6A 12 
   219)       672.3  Rx         010C  8  00 00 00 00 00 CA 9A 3B 
   220)       672.6  Rx         010D  8  00 00 00 00 00 00 00 00 
   221)       672.8  Rx         010E  8  16 00 1D 00 00 00 00 00 
   222)       673.1  Rx         010F  8  00 00 00 00 00 00 00 00 
   223)       673.3  Rx         0110  8  02 21 84 03 00 10 02 00 
   224)       673.6  Rx         0111  8  00 00 00 00 00 00 00 00 
   225)       673.8  Rx         0112  8  03 00 00 00 00 00 00 00 
   226)       674.1  Rx         0113  8  18 24 01 00 00 01 00 00 
   227)       689.9  Rx         01FF  8  00 00 00 00 00 00 00 00 
   228)       692.1  Rx         0700  8  00 00 00 00 00 00 00 00 
   229)       692.3  Rx         0701  8  0A 0A 00 06 00 00 01 00 
   230)       692.5  Rx         0702  8  00 00 00 00 00 00 00 00 
   231)       709.8  Rx         01FF  8  00 00 00 00 00 00 00 00 
   232)       729.9  Rx         01FF  8  00 00 00 00 00 00 00 00 
   233)       749.8  Rx         01FF  8  00 00 00 00 00 00 00 00 
   234)       750.6  Rx         010A  8  00 00 00 00 00 00 00 00 
   235)       750.9  Rx         010B  8  00 00 F9 FF 18 00 6A 12 
   236)       751.1  Rx         010C  8  00 00 00 00 00 CA 9A 3B 
   237)       751.3  Rx         010D  8  00 00 00 00 00 00 00 00 
   238)       751.6  Rx         010E  8  16 00 1D 00 00 00 00 00 
   239)       751.8  Rx         010F  8  00 00 00 00 00 00 00 00 
   240)       752.1  Rx         0110  8  02 21 84 03 00 10 02 00 
   241)       752.3  Rx         0111  8  00 00 00 00 00 00 00 00 
   242)       752.6  Rx         0112  8  03 00 00 00 00 00 00 00 
   243)       769.9  Rx         0700  8  00 00 00 00 00 00 00 00 
   244)       770.1  Rx         0701  8  0A 0A 00 06 00 00 01 00 
   245)       770.4  Rx         0100  8  1B 54 22 00 64 80 84 03 
   246)       770.6  Rx         0102  8  03 00 00 00 11 02 F1 24 
   247)       770.8  Rx         0103  8  B5 3F 3D 32 97 CD BB E0 
   248)       771.1  Rx         0104  8  B3 81 1F 01 00 00 00 00 
   249)       771.3  Rx         0105  8  81 00 00 00 00 00 01 01 
   250)       771.6  Rx         0108  8  00 00 00 02 00 00 01 00 
   251)       771.8  Rx         0109  8  00 00 00 00 00 00 00 7C 
   252)       772.1  Rx         0113  8  18 24 01 00 00 01 00 00 
   253)       772.3  Rx         01FF  8  00 00 00 00 00 00 00 00 
   254)       772.6  Rx         0150  8  00 00 00 20 00 00 00 00 
   255)       772.8  Rx         0151  8  00 00 00 00 9D 14 00 00 
   256)       773.1  Rx         0152  8  00 00 00 00 00 00 00 00 
   257)       773.3  Rx         0153  8  15 00 00 00 5F 01 1F 00 
   258)       773.6  Rx         0154  8  AC 15 00 00 00 00 F2 11 
   259)       773.8  Rx         0155  8  06 00 3A 06 BA 12 33 14 
   260)       774.0  Rx         0156  8  00 00 00 00 00 00 65 0A 
   261)       774.2  Rx         0157  8  00 00 00 00 CC 6A CC 6A 
   262)       774.5  Rx         0158  8  00 00 00 00 00 00 00 00 
   263)       774.8  Rx         0159  8  2E 00 00 00 00 00 00 01 
   264)       775.0  Rx         0702  8  00 00 00 00 00 00 00 00 
   265)       789.8  Rx         01FF  8  00 00 00 00 00 00 00 00 
   266)       809.9  Rx         01FF  8  00 00 00 00 00 00 00 00 
   267)       829.8  Rx         01FF  8  00 00 00 00 00 00 00 00 
   268)       830.5  Rx         010A  8  00 00 00 00 00 00 00 00 
   269)       830.8  Rx         010B  8  00 00 F9 FF 18 00 6A 12 
   270)       831.0  Rx         010C  8  00 00 00 00 00 CA 9A 3B 
   271)       831.3  Rx         010D  8  00 00 00 00 00 00 00 00 
   272)       831.5  Rx         010E  8  16 00 1D 00 00 00 00 00 
   273)       831.8  Rx         010F  8  00 00 00 00 00 00 00 00 
   274)       832.0  Rx         0110  8  02 21 84 03 00 10 02 00 
   275)       832.3  Rx         0111  8  00 00 00 00 00 00 00 00 
   276)       832.5  Rx         0112  8  03 00 00 00 00 00 00 00 
   277)       849.9  Rx         01FF  8  00 00 00 00 00 00 00 00 
   278)       850.1  Rx         0700  8  00 00 00 00 00 00 00 00 
   279)       850.4  Rx         0701  8  0A 0A 00 06 00 00 01 00 
   280)       850.6  Rx         0702  8  00 00 00 00 00 00 00 00 
   281)       869.9  Rx         01FF  8  00 00 00 00 00 00 00 00 
   282)       870.2  Rx         0100  8  1B 54 22 00 64 80 84 03 
   283)       870.4  Rx         0102  8  03 00 00 00 11 02 85 24 
   284)       870.6  Rx         0103  8  B5 3F 3D 32 97 CD BB E0 
   285)       870.9  Rx         0104  8  B3 81 1F 01 00 00 00 00 
   286)       871.1  Rx         0105  8  81 00 00 00 00 00 01 01 
   287)       871.4  Rx         0108  8  00 00 00 02 00 00 01 00 
   288)       871.6  Rx         0109  8  00 00 00 00 00 00 00 7C 
   289)       871.9  Rx         0113  8  18 24 01 00 00 01 00 00 
   290)       889.9  Rx         01FF  8  00 00 00 00 00 00 00 00 
   291)       909.8  Rx         01FF  8  00 00 00 00 00 00 00 00 
   292)       910.6  Rx         010A  8  00 00 00 00 00 00 00 00 
   293)       910.8  Rx         010B  8  00 00 F9 FF 18 00 6A 12 
   294)       911.0  Rx         010C  8  00 00 00 00 00 CA 9A 3B 
   295)       911.3  Rx         010D  8  00 00 00 00 00 00 00 00 
   296)       911.5  Rx         010E  8  16 00 1D 00 00 00 00 00 
   297)       911.8  Rx         010F  8  00 00 00 00 00 00 00 00 
   298)       912.0  Rx         0110  8  02 21 84 03 00 10 02 00 
   299)       912.3  Rx         0111  8  00 00 00 00 00 00 00 00 
   300)       912.5  Rx         0112  8  03 00 00 00 00 00 00 00 
   301)       930.0  Rx         0700  8  00 00 00 00 00 00 00 00 
   302)       930.3  Rx         01FF  8  00 00 00 00 00 00 00 00 
   303)       930.5  Rx         0701  8  0A 0A 00 06 00 00 01 00 
   304)       930.7  Rx         0702  8  00 00 00 00 00 00 00 00 
   305)       949.8  Rx         01FF  8  00 00 00 00 00 00 00 00 
   306)       970.0  Rx         01FF  8  00 00 00 00 00 00 00 00 
   307)       970.3  Rx         0100  8  1B 54 22 00 64 80 85 03 
   308)       970.5  Rx         0102  8  03 00 00 00 11 02 5D 24 
   309)       970.7  Rx         0103  8  B5 3F 3D 32 97 CD BB E0 
   310)       971.0  Rx         0104  8  B3 81 1F 01 00 00 00 00 
   311)       971.2  Rx         0105  8  81 00 00 00 00 00 01 01 
   312)       971.5  Rx         0108  8  00 00 00 02 00 00 01 00 
   313)       971.7  Rx         0109  8  00 00 00 00 00 00 00 7C 
   314)       972.0  Rx         0113  8  18 24 01 00 00 01 00 00 
   315)       972.2  Rx         0150  8  00 00 00 20 00 00 00 00 
   316)       972.5  Rx         0151  8  00 00 00 00 9B 14 00 00 
   317)       972.7  Rx         0152  8  00 00 00 00 00 00 00 00 
   318)       972.9  Rx         0153  8  15 00 00 00 5D 01 1F 00 
   319)       973.2  Rx         0154  8  AC 15 00 00 00 00 F2 11 
   320)       973.4  Rx         0155  8  06 00 36 06 BA 12 33 14 
   321)       973.7  Rx         0156  8  00 00 00 00 00 00 65 0A 
   322)       973.9  Rx         0157  8  00 00 00 00 CC 6A CC 6A 
   323)       974.2  Rx         0158  8  00 00 00 00 00 00 00 00 
   324)       974.4  Rx         0159  8  2E 00 00 00 00 00 00 01 
   325)       989.8  Rx         01FF  8  00 00 00 00 00 00 00 00 
   326)       990.6  Rx         010A  8  00 00 00 00 00 00 00 00 
   327)       990.8  Rx         010B  8  00 00 F9 FF 18 00 6A 12 
   328)       991.0  Rx         010C  8  00 00 00 00 00 CA 9A 3B 
   329)       991.3  Rx         010D  8  00 00 00 00 00 00 00 00 
   330)       991.5  Rx         010E  8  16 00 1D 00 00 00 00 00 
   331)       991.8  Rx         010F  8  00 00 00 00 00 00 00 00 
   332)       992.0  Rx         0110  8  02 21 84 03 00 10 02 00 
   333)       992.3  Rx         0111  8  00 00 00 00 00 00 00 00 
   334)       992.5  Rx         0112  8  03 00 00 00 00 00 00 00 
   335)      1009.8  Rx         01FF  8  00 00 00 00 00 00 00 00 
   336)      1010.1  Rx         0700  8  00 00 00 00 00 00 00 00 
   337)      1010.4  Rx         0701  8  0A 0A 00 06 00 00 01 00 
   338)      1010.7  Rx         0702  8  00 00 00 00 00 00 00 00 
   339)      1029.9  Rx         01FF  8  00 00 00 00 00 00 00 00 
   340)      1049.9  Rx         01FF  8  00 00 00 00 00 00 00 00 
   341)      1069.9  Rx         01FF  8  00 00 00 00 00 00 00 00 
   342)      1070.1  Rx         0100  8  1B 54 22 00 64 80 83 03 
   343)      1070.4  Rx         0102  8  03 00 00 00 11 02 9B 24 
   344)      1070.6  Rx         0103  8  B5 3F 3D 32 97 CD BB E0 
   345)      1070.9  Rx         0104  8  B3 81 1F 01 00 00 00 00 
   346)      1071.1  Rx         0105  8  81 00 00 00 00 00 01 01 
   347)      1071.3  Rx         0108  8  00 00 00 02 00 00 01 00 
   348)      1071.6  Rx         0109  8  00 00 00 00 00 00 00 7C 
   349)      1071.8  Rx         010A  8  00 00 00 00 00 00 00 00 
   350)      1072.1  Rx         010B  8  00 00 F9 FF 18 00 6A 12 
   351)      1072.3  Rx         010C  8  00 00 00 00 00 CA 9A 3B 
   352)      1072.6  Rx         010D  8  00 00 00 00 00 00 00 00 
   353)      1072.8  Rx         010E  8  16 00 1D 00 00 00 00 00 
   354)      1073.1  Rx         010F  8  00 00 00 00 00 00 00 00 
   355)      1073.3  Rx         0110  8  02 21 84 03 00 10 02 00 
   356)      1073.5  Rx         0111  8  00 00 00 00 00 00 00 00 
   357)      1073.8  Rx         0112  8  03 00 00 00 00 00 00 00 
   358)      1074.1  Rx         0113  8  18 24 01 00 00 01 00 00 
   359)      1090.1  Rx         01FF  8  00 00 00 00 00 00 00 00 
   360)      1090.3  Rx         0700  8  00 00 00 00 00 00 00 00 
   361)      1090.5  Rx         0701  8  0A 0A 00 06 00 00 01 00 
   362)      1090.8  Rx         0702  8  00 00 00 00 00 00 00 00 
   363)      1109.8  Rx         01FF  8  00 00 00 00 00 00 00 00 
   364)      1129.9  Rx         01FF  8  00 00 00 00 00 00 00 00 
   365)      1149.8  Rx         01FF  8  00 00 00 00 00 00 00 00 
   366)      1150.6  Rx         010A  8  00 00 00 00 00 00 00 00 
   367)      1150.8  Rx         010B  8  00 00 F9 FF 18 00 6A 12 
   368)      1151.0  Rx         010C  8  00 00 00 00 00 CA 9A 3B 
   369)      1151.3  Rx         010D  8  00 00 00 00 00 00 00 00 
   370)      1151.5  Rx         010E  8  16 00 1D 00 00 00 00 00 
   371)      1151.8  Rx         010F  8  00 00 00 00 00 00 00 00 
