;$FILEVERSION=1.1
;$STARTTIME=46090.6400693287
;
;   Start time: 09/03/2026 15:21:41.990.0
;   Generated by PCAN-View v5.3.3.958
;
;   Message Number
;   |         Time Offset (ms)
;   |         |        Type
;   |         |        |        ID (hex)
;   |         |        |        |     Data Length
;   |         |        |        |     |   Data Bytes (hex) ...
;   |         |        |        |     |   |
;---+--   ----+----  --+--  ----+---  +  -+ -- -- -- -- -- -- --
     1)        13.7  Rx         01FF  8  00 00 00 00 00 00 00 00 
     2)        33.7  Rx         01FF  8  00 00 00 00 00 00 00 00 
     3)        34.4  Rx         010A  8  00 00 00 00 00 00 00 00 
     4)        34.7  Rx         010B  8  00 00 FB FF 18 00 6A 0D 
     5)        34.9  Rx         010C  8  00 00 00 00 00 CA 9A 3B 
     6)        35.2  Rx         010D  8  00 00 00 00 00 00 00 00 
     7)        35.4  Rx         010E  8  16 00 1B 00 00 00 00 00 
     8)        35.6  Rx         010F  8  00 00 00 00 00 00 00 00 
     9)        35.9  Rx         0110  8  02 21 84 03 00 10 02 00 
    10)        36.1  Rx         0111  8  00 00 00 00 00 00 00 00 
    11)        36.4  Rx         0112  8  03 00 00 00 00 00 00 00 
    12)        53.7  Rx         01FF  8  00 00 00 00 00 00 00 00 
    13)        73.7  Rx         01FF  8  00 00 00 00 00 00 00 00 
    14)        76.3  Rx         0700  8  00 00 00 00 00 00 00 00 
    15)        76.6  Rx         0701  8  0A 0A 00 06 00 00 01 00 
    16)        76.8  Rx         0702  8  00 00 00 00 00 00 00 00 
    17)        93.9  Rx         01FF  8  00 00 00 00 00 00 00 00 
    18)        94.2  Rx         0100  8  1B 54 2E 00 64 80 83 03 
    19)        94.4  Rx         0102  8  05 00 00 00 11 02 3E 24 
    20)        94.6  Rx         0103  8  B5 3F 3D 32 97 CD BB E0 
    21)        94.9  Rx         0104  8  B3 81 1F 01 00 00 00 00 
    22)        95.2  Rx         0105  8  81 00 00 00 00 00 01 01 
    23)        95.4  Rx         0108  8  00 00 00 02 00 00 01 00 
    24)        95.6  Rx         0109  8  00 00 00 00 00 00 00 7E 
    25)        95.9  Rx         0113  8  18 24 01 00 00 01 00 00 
    26)        96.1  Rx         0150  8  00 00 00 20 00 00 00 00 
    27)        96.4  Rx         0151  8  00 00 00 00 20 15 00 00 
    28)        96.6  Rx         0152  8  00 00 00 00 00 00 00 00 
    29)        96.9  Rx         0153  8  15 00 00 00 5D 01 1F 00 
    30)        97.1  Rx         0154  8  AC 15 00 00 00 00 F2 11 
    31)        97.3  Rx         0155  8  12 00 C7 03 77 12 FC 12 
    32)        97.6  Rx         0156  8  00 00 00 00 00 00 65 0A 
    33)        97.8  Rx         0157  8  00 00 00 00 CC 6A CC 6A 
    34)        98.1  Rx         0158  8  00 00 00 00 00 00 00 00 
    35)        98.3  Rx         0159  8  2E 00 00 00 00 00 00 01 
    36)       113.7  Rx         01FF  8  00 00 00 00 00 00 00 00 
    37)       114.4  Rx         010A  8  00 00 00 00 00 00 00 00 
    38)       114.7  Rx         010B  8  00 00 FB FF 18 00 6A 0D 
    39)       114.9  Rx         010C  8  00 00 00 00 00 CA 9A 3B 
    40)       115.2  Rx         010D  8  00 00 00 00 00 00 00 00 
    41)       115.4  Rx         010E  8  16 00 1B 00 00 00 00 00 
    42)       115.7  Rx         010F  8  00 00 00 00 00 00 00 00 
    43)       115.9  Rx         0110  8  02 21 84 03 00 10 02 00 
    44)       116.1  Rx         0111  8  00 00 00 00 00 00 00 00 
    45)       116.4  Rx         0112  8  03 00 00 00 00 00 00 00 
    46)       134.0  Rx         01FF  8  00 00 00 00 00 00 00 00 
    47)       153.7  Rx         01FF  8  00 00 00 00 00 00 00 00 
    48)       156.4  Rx         0700  8  00 00 00 00 00 00 00 00 
    49)       156.6  Rx         0701  8  0A 0A 00 06 00 00 01 00 
    50)       156.8  Rx         0702  8  00 00 00 00 00 00 00 00 
    51)       173.7  Rx         01FF  8  00 00 00 00 00 00 00 00 
    52)       193.8  Rx         01FF  8  00 00 00 00 00 00 00 00 
    53)       194.0  Rx         0100  8  1B 54 2E 00 64 80 85 03 
    54)       194.3  Rx         0102  8  05 00 00 00 11 02 A2 24 
    55)       194.5  Rx         0103  8  B5 3F 3D 32 97 CD BB E0 
    56)       194.7  Rx         0104  8  B3 81 1F 01 00 00 00 00 
    57)       195.0  Rx         0105  8  81 00 00 00 00 00 01 01 
    58)       195.2  Rx         0108  8  00 00 00 02 00 00 01 00 
    59)       195.5  Rx         0109  8  00 00 00 00 00 00 00 7E 
    60)       195.7  Rx         010A  8  00 00 00 00 00 00 00 00 
    61)       196.0  Rx         010B  8  00 00 FB FF 18 00 6A 0D 
    62)       196.2  Rx         010C  8  00 00 00 00 00 CA 9A 3B 
    63)       196.5  Rx         010D  8  00 00 00 00 00 00 00 00 
    64)       196.7  Rx         010E  8  16 00 1B 00 00 00 00 00 
    65)       197.0  Rx         010F  8  00 00 00 00 00 00 00 00 
    66)       197.2  Rx         0110  8  02 21 84 03 00 10 02 00 
    67)       197.5  Rx         0111  8  00 00 00 00 00 00 00 00 
    68)       197.7  Rx         0112  8  03 00 00 00 00 00 00 00 
    69)       197.9  Rx         0113  8  18 24 01 00 00 01 00 00 
    70)       213.7  Rx         01FF  8  00 00 00 00 00 00 00 00 
    71)       233.7  Rx         01FF  8  00 00 00 00 00 00 00 00 
    72)       236.4  Rx         0700  8  00 00 00 00 00 00 00 00 
    73)       236.6  Rx         0701  8  0A 0A 00 06 00 00 01 00 
    74)       236.9  Rx         0702  8  00 00 00 00 00 00 00 00 
    75)       253.8  Rx         01FF  8  00 00 00 00 00 00 00 00 
    76)       273.8  Rx         01FF  8  00 00 00 00 00 00 00 00 
    77)       274.6  Rx         010A  8  00 00 00 00 00 00 00 00 
    78)       274.8  Rx         010B  8  00 00 FB FF 18 00 6A 0D 
    79)       275.0  Rx         010C  8  00 00 00 00 00 CA 9A 3B 
    80)       275.3  Rx         010D  8  00 00 00 00 00 00 00 00 
    81)       275.5  Rx         010E  8  16 00 1B 00 00 00 00 00 
    82)       275.7  Rx         010F  8  00 00 00 00 00 00 00 00 
    83)       276.0  Rx         0110  8  02 21 84 03 00 10 02 00 
    84)       276.3  Rx         0111  8  00 00 00 00 00 00 00 00 
    85)       276.5  Rx         0112  8  03 00 00 00 00 00 00 00 
    86)       294.1  Rx         01FF  8  00 00 00 00 00 00 00 00 
    87)       294.3  Rx         0100  8  1B 54 2E 00 64 80 84 03 
    88)       294.6  Rx         0102  8  05 00 00 00 11 02 EF 24 
    89)       294.8  Rx         0103  8  B5 3F 3D 32 97 CD BB E0 
    90)       295.1  Rx         0104  8  B3 81 1F 01 00 00 00 00 
    91)       295.3  Rx         0105  8  81 00 00 00 00 00 01 01 
    92)       295.6  Rx         0108  8  00 00 00 02 00 00 01 00 
    93)       295.8  Rx         0109  8  00 00 00 00 00 00 00 7E 
    94)       296.1  Rx         0113  8  18 24 01 00 00 01 00 00 
    95)       296.3  Rx         0150  8  00 00 00 20 00 00 00 00 
    96)       296.6  Rx         0151  8  00 00 00 00 24 15 00 00 
    97)       296.8  Rx         0152  8  00 00 00 00 00 00 00 00 
    98)       297.0  Rx         0153  8  15 00 00 00 5D 01 1F 00 
    99)       297.3  Rx         0154  8  AC 15 00 00 00 00 F2 11 
   100)       297.5  Rx         0155  8  10 00 CB 03 77 12 FC 12 
   101)       297.8  Rx         0156  8  00 00 00 00 00 00 65 0A 
   102)       298.0  Rx         0157  8  00 00 00 00 CC 6A CC 6A 
   103)       298.3  Rx         0158  8  00 00 00 00 00 00 00 00 
   104)       298.5  Rx         0159  8  2E 00 00 00 00 00 00 01 
   105)       313.7  Rx         01FF  8  00 00 00 00 00 00 00 00 
   106)       316.6  Rx         0700  8  00 00 00 00 00 00 00 00 
   107)       316.8  Rx         0701  8  0A 0A 00 06 00 00 01 00 
   108)       317.1  Rx         0702  8  00 00 00 00 00 00 00 00 
   109)       333.8  Rx         01FF  8  00 00 00 00 00 00 00 00 
   110)       353.7  Rx         01FF  8  00 00 00 00 00 00 00 00 
   111)       354.5  Rx         010A  8  00 00 00 00 00 00 00 00 
   112)       354.7  Rx         010B  8  00 00 FB FF 18 00 6A 0D 
   113)       354.9  Rx         010C  8  00 00 00 00 00 CA 9A 3B 
   114)       355.2  Rx         010D  8  00 00 00 00 00 00 00 00 
   115)       355.4  Rx         010E  8  16 00 1B 00 00 00 00 00 
   116)       355.7  Rx         010F  8  00 00 00 00 00 00 00 00 
   117)       355.9  Rx         0110  8  02 21 84 03 00 10 02 00 
   118)       356.2  Rx         0111  8  00 00 00 00 00 00 00 00 
   119)       356.4  Rx         0112  8  03 00 00 00 00 00 00 00 
   120)       373.8  Rx         01FF  8  00 00 00 00 00 00 00 00 
   121)       393.8  Rx         01FF  8  00 00 00 00 00 00 00 00 
   122)       394.1  Rx         0100  8  1B 54 2E 00 64 80 85 03 
   123)       394.3  Rx         0102  8  05 00 00 00 11 02 89 24 
   124)       394.5  Rx         0103  8  B5 3F 3D 32 97 CD BB E0 
   125)       394.8  Rx         0104  8  B3 81 1F 01 00 00 00 00 
   126)       395.0  Rx         0105  8  81 00 00 00 00 00 01 01 
   127)       395.3  Rx         0108  8  00 00 00 02 00 00 01 00 
   128)       395.5  Rx         0109  8  00 00 00 00 00 00 00 7E 
   129)       395.8  Rx         0113  8  18 24 01 00 00 01 00 00 
   130)       396.4  Rx         0700  8  00 00 00 00 00 00 00 00 
   131)       396.6  Rx         0701  8  0A 0A 00 06 00 00 01 00 
   132)       396.8  Rx         0702  8  00 00 00 00 00 00 00 00 
   133)       413.9  Rx         01FF  8  00 00 00 00 00 00 00 00 
   134)       433.7  Rx         01FF  8  00 00 00 00 00 00 00 00 
   135)       434.5  Rx         010A  8  00 00 00 00 00 00 00 00 
   136)       434.7  Rx         010B  8  00 00 FB FF 18 00 6A 0D 
   137)       434.9  Rx         010C  8  00 00 00 00 00 CA 9A 3B 
   138)       435.2  Rx         010D  8  00 00 00 00 00 00 00 00 
   139)       435.4  Rx         010E  8  16 00 1B 00 00 00 00 00 
   140)       435.7  Rx         010F  8  00 00 00 00 00 00 00 00 
   141)       435.9  Rx         0110  8  02 21 84 03 00 10 02 00 
   142)       436.2  Rx         0111  8  00 00 00 00 00 00 00 00 
   143)       436.4  Rx         0112  8  03 00 00 00 00 00 00 00 
   144)       454.0  Rx         01FF  8  00 00 00 00 00 00 00 00 
   145)       473.7  Rx         01FF  8  00 00 00 00 00 00 00 00 
   146)       476.7  Rx         0700  8  00 00 00 00 00 00 00 00 
   147)       477.0  Rx         0701  8  0A 0A 00 06 00 00 01 00 
   148)       477.2  Rx         0702  8  00 00 00 00 00 00 00 00 
   149)       494.0  Rx         01FF  8  00 00 00 00 00 00 00 00 
   150)       494.2  Rx         0100  8  1B 54 2E 00 64 80 83 03 
   151)       494.5  Rx         0102  8  05 00 00 00 11 02 45 24 
   152)       494.7  Rx         0103  8  B5 3F 3D 32 97 CD BB E0 
   153)       494.9  Rx         0104  8  B3 81 1F 01 00 00 00 00 
   154)       495.2  Rx         0105  8  81 00 00 00 00 00 01 01 
   155)       495.4  Rx         0108  8  00 00 00 02 00 00 01 00 
   156)       495.7  Rx         0109  8  00 00 00 00 00 00 00 7E 
   157)       495.9  Rx         0113  8  18 24 01 00 00 01 00 00 
   158)       496.2  Rx         0150  8  00 00 00 20 00 00 00 00 
   159)       496.4  Rx         0151  8  00 00 00 00 1C 15 00 00 
   160)       496.7  Rx         0152  8  00 00 00 00 00 00 00 00 
   161)       496.9  Rx         0153  8  15 00 00 00 5F 01 1F 00 
   162)       497.1  Rx         0154  8  AC 15 00 00 00 00 F2 11 
   163)       497.4  Rx         0155  8  12 00 CB 03 61 12 FC 12 
   164)       497.6  Rx         0156  8  00 00 00 00 00 00 65 0A 
   165)       497.9  Rx         0157  8  00 00 00 00 CC 6A CC 6A 
   166)       498.1  Rx         0158  8  00 00 00 00 00 00 00 00 
   167)       498.3  Rx         0159  8  2E 00 00 00 00 00 00 01 
   168)       513.7  Rx         01FF  8  00 00 00 00 00 00 00 00 
   169)       514.5  Rx         010A  8  00 00 00 00 00 00 00 00 
   170)       514.7  Rx         010B  8  00 00 FB FF 18 00 6A 0D 
   171)       514.9  Rx         010C  8  00 00 00 00 00 CA 9A 3B 
   172)       515.2  Rx         010D  8  00 00 00 00 00 00 00 00 
   173)       515.4  Rx         010E  8  16 00 1B 00 00 00 00 00 
   174)       515.7  Rx         010F  8  00 00 00 00 00 00 00 00 
   175)       516.0  Rx         0110  8  02 21 84 03 00 10 02 00 
   176)       516.2  Rx         0111  8  00 00 00 00 00 00 00 00 
   177)       516.4  Rx         0112  8  03 00 00 00 00 00 00 00 
   178)       533.8  Rx         01FF  8  00 00 00 00 00 00 00 00 
   179)       553.8  Rx         01FF  8  00 00 00 00 00 00 00 00 
   180)       556.4  Rx         0700  8  00 00 00 00 00 00 00 00 
   181)       556.6  Rx         0701  8  0A 0A 00 06 00 00 01 00 
   182)       556.9  Rx         0702  8  00 00 00 00 00 00 00 00 
   183)       573.8  Rx         01FF  8  00 00 00 00 00 00 00 00 
   184)       593.8  Rx         01FF  8  00 00 00 00 00 00 00 00 
   185)       594.0  Rx         0100  8  1B 54 2E 00 64 80 85 03 
   186)       594.3  Rx         0102  8  05 00 00 00 11 02 B8 24 
   187)       594.5  Rx         0103  8  B5 3F 3D 32 97 CD BB E0 
   188)       594.8  Rx         0104  8  B3 81 1F 01 00 00 00 00 
   189)       595.0  Rx         0105  8  81 00 00 00 00 00 01 01 
   190)       595.3  Rx         0108  8  00 00 00 02 00 00 01 00 
   191)       595.5  Rx         0109  8  00 00 00 00 00 00 00 7E 
   192)       595.8  Rx         010A  8  00 00 00 00 00 00 00 00 
   193)       596.0  Rx         010B  8  00 00 FB FF 18 00 6A 0D 
   194)       596.3  Rx         010C  8  00 00 00 00 00 CA 9A 3B 
   195)       596.5  Rx         010D  8  00 00 00 00 00 00 00 00 
   196)       596.8  Rx         010E  8  16 00 1B 00 00 00 00 00 
   197)       597.0  Rx         010F  8  00 00 00 00 00 00 00 00 
   198)       597.2  Rx         0110  8  02 21 84 03 00 10 02 00 
   199)       597.5  Rx         0111  8  00 00 00 00 00 00 00 00 
   200)       597.7  Rx         0112  8  03 00 00 00 00 00 00 00 
   201)       598.0  Rx         0113  8  18 24 01 00 00 01 00 00 
   202)       614.0  Rx         01FF  8  00 00 00 00 00 00 00 00 
   203)       633.7  Rx         01FF  8  00 00 00 00 00 00 00 00 
   204)       636.4  Rx         0700  8  00 00 00 00 00 00 00 00 
   205)       636.6  Rx         0701  8  0A 0A 00 06 00 00 01 00 
   206)       636.9  Rx         0702  8  00 00 00 00 00 00 00 00 
   207)       653.8  Rx         01FF  8  00 00 00 00 00 00 00 00 
   208)       673.7  Rx         01FF  8  00 00 00 00 00 00 00 00 
   209)       674.5  Rx         010A  8  00 00 00 00 00 00 00 00 
   210)       674.7  Rx         010B  8  00 00 FB FF 18 00 6A 0D 
   211)       675.0  Rx         010C  8  00 00 00 00 00 CA 9A 3B 
   212)       675.2  Rx         010D  8  00 00 00 00 00 00 00 00 
   213)       675.4  Rx         010E  8  16 00 1B 00 00 00 00 00 
   214)       675.7  Rx         010F  8  00 00 00 00 00 00 00 00 
   215)       676.0  Rx         0110  8  02 21 84 03 00 10 02 00 
   216)       676.2  Rx         0111  8  00 00 00 00 00 00 00 00 
   217)       676.4  Rx         0112  8  03 00 00 00 00 00 00 00 
   218)       694.0  Rx         01FF  8  00 00 00 00 00 00 00 00 
   219)       694.3  Rx         0100  8  1B 54 2E 00 64 80 84 03 
   220)       694.5  Rx         0102  8  05 00 00 00 11 02 95 24 
   221)       694.7  Rx         0103  8  B5 3F 3D 32 97 CD BB E0 
   222)       694.9  Rx         0104  8  B3 81 1F 01 00 00 00 00 
   223)       695.2  Rx         0105  8  81 00 00 00 00 00 01 01 
   224)       695.5  Rx         0108  8  00 00 00 02 00 00 01 00 
   225)       695.7  Rx         0109  8  00 00 00 00 00 00 00 7E 
   226)       696.0  Rx         0113  8  18 24 01 00 00 01 00 00 
   227)       696.2  Rx         0150  8  00 00 00 20 00 00 00 00 
   228)       696.4  Rx         0151  8  00 00 00 00 20 15 00 00 
   229)       696.7  Rx         0152  8  00 00 00 00 00 00 00 00 
   230)       696.9  Rx         0153  8  15 00 00 00 5D 01 1F 00 
   231)       697.2  Rx         0154  8  AC 15 00 00 00 00 F2 11 
   232)       697.4  Rx         0155  8  10 00 CB 03 61 12 FC 12 
   233)       697.7  Rx         0156  8  00 00 00 00 00 00 65 0A 
   234)       697.9  Rx         0157  8  00 00 00 00 CC 6A CC 6A 
   235)       698.1  Rx         0158  8  00 00 00 00 00 00 00 00 
   236)       698.4  Rx         0159  8  2E 00 00 00 00 00 00 01 
   237)       713.7  Rx         01FF  8  00 00 00 00 00 00 00 00 
   238)       716.6  Rx         0700  8  00 00 00 00 00 00 00 00 
   239)       716.9  Rx         0701  8  0A 0A 00 06 00 00 01 00 
   240)       717.1  Rx         0702  8  00 00 00 00 00 00 00 00 
   241)       733.8  Rx         01FF  8  00 00 00 00 00 00 00 00 
   242)       753.7  Rx         01FF  8  00 00 00 00 00 00 00 00 
   243)       754.5  Rx         010A  8  00 00 00 00 00 00 00 00 
   244)       754.7  Rx         010B  8  00 00 FB FF 18 00 6A 0D 
   245)       755.0  Rx         010C  8  00 00 00 00 00 CA 9A 3B 
   246)       755.2  Rx         010D  8  00 00 00 00 00 00 00 00 
   247)       755.4  Rx         010E  8  16 00 1B 00 00 00 00 00 
   248)       755.7  Rx         010F  8  00 00 00 00 00 00 00 00 
   249)       756.0  Rx         0110  8  02 21 84 03 00 10 02 00 
   250)       756.2  Rx         0111  8  00 00 00 00 00 00 00 00 
   251)       756.4  Rx         0112  8  03 00 00 00 00 00 00 00 
   252)       774.0  Rx         01FF  8  00 00 00 00 00 00 00 00 
   253)       793.8  Rx         01FF  8  00 00 00 00 00 00 00 00 
   254)       794.1  Rx         0100  8  1B 54 2E 00 64 80 85 03 
   255)       794.3  Rx         0102  8  05 00 00 00 11 02 39 25 
   256)       794.5  Rx         0103  8  B5 3F 3D 32 97 CD BB E0 
   257)       794.8  Rx         0104  8  B3 81 1F 01 00 00 00 00 
   258)       795.0  Rx         0105  8  81 00 00 00 00 00 01 01 
   259)       795.3  Rx         0108  8  00 00 00 02 00 00 01 00 
   260)       795.5  Rx         0109  8  00 00 00 00 00 00 00 7E 
   261)       795.8  Rx         0113  8  18 24 01 00 00 01 00 00 
   262)       796.4  Rx         0700  8  00 00 00 00 00 00 00 00 
   263)       796.6  Rx         0701  8  0A 0A 00 06 00 00 01 00 
   264)       796.9  Rx         0702  8  00 00 00 00 00 00 00 00 
   265)       813.8  Rx         01FF  8  00 00 00 00 00 00 00 00 
   266)       833.8  Rx         01FF  8  00 00 00 00 00 00 00 00 
   267)       834.5  Rx         010A  8  00 00 00 00 00 00 00 00 
   268)       834.8  Rx         010B  8  00 00 FB FF 18 00 6A 0D 
   269)       835.0  Rx         010C  8  00 00 00 00 00 CA 9A 3B 
   270)       835.3  Rx         010D  8  00 00 00 00 00 00 00 00 
   271)       835.5  Rx         010E  8  16 00 1B 00 00 00 00 00 
   272)       835.8  Rx         010F  8  00 00 00 00 00 00 00 00 
   273)       836.0  Rx         0110  8  02 21 84 03 00 10 02 00 
   274)       836.3  Rx         0111  8  00 00 00 00 00 00 00 00 
   275)       836.5  Rx         0112  8  03 00 00 00 00 00 00 00 
   276)       853.8  Rx         01FF  8  00 00 00 00 00 00 00 00 
   277)       873.7  Rx         01FF  8  00 00 00 00 00 00 00 00 
   278)       876.4  Rx         0700  8  00 00 00 00 00 00 00 00 
   279)       876.6  Rx         0701  8  0A 0A 00 06 00 00 01 00 
   280)       876.9  Rx         0702  8  00 00 00 00 00 00 00 00 
   281)       894.0  Rx         01FF  8  00 00 00 00 00 00 00 00 
   282)       894.2  Rx         0100  8  1B 54 2E 00 64 80 83 03 
   283)       894.4  Rx         0102  8  05 00 00 00 11 02 5F 24 
   284)       894.7  Rx         0103  8  B5 3F 3D 32 97 CD BB E0 
   285)       894.9  Rx         0104  8  B3 81 1F 01 00 00 00 00 
   286)       895.2  Rx         0105  8  81 00 00 00 00 00 01 01 
   287)       895.4  Rx         0108  8  00 00 00 02 00 00 01 00 
   288)       895.7  Rx         0109  8  00 00 00 00 00 00 00 7E 
   289)       895.9  Rx         0113  8  18 24 01 00 00 01 00 00 
   290)       896.2  Rx         0150  8  00 00 00 20 00 00 00 00 
   291)       896.4  Rx         0151  8  00 00 00 00 1C 15 00 00 
   292)       896.7  Rx         0152  8  00 00 00 00 00 00 00 00 
   293)       896.9  Rx         0153  8  15 00 00 00 5F 01 1F 00 
   294)       897.1  Rx         0154  8  AC 15 00 00 00 00 F2 11 
   295)       897.4  Rx         0155  8  10 00 C7 03 77 12 FC 12 
   296)       897.6  Rx         0156  8  00 00 00 00 00 00 65 0A 
   297)       897.9  Rx         0157  8  00 00 00 00 CC 6A CC 6A 
   298)       898.1  Rx         0158  8  00 00 00 00 00 00 00 00 
   299)       898.4  Rx         0159  8  2E 00 00 00 00 00 00 01 
   300)       913.7  Rx         01FF  8  00 00 00 00 00 00 00 00 
   301)       914.5  Rx         010A  8  00 00 00 00 00 00 00 00 
   302)       914.7  Rx         010B  8  00 00 FB FF 18 00 6A 0D 
   303)       915.0  Rx         010C  8  00 00 00 00 00 CA 9A 3B 
   304)       915.2  Rx         010D  8  00 00 00 00 00 00 00 00 
   305)       915.4  Rx         010E  8  16 00 1B 00 00 00 00 00 
   306)       915.7  Rx         010F  8  00 00 00 00 00 00 00 00 
   307)       916.0  Rx         0110  8  02 21 84 03 00 10 02 00 
   308)       916.2  Rx         0111  8  00 00 00 00 00 00 00 00 
   309)       916.4  Rx         0112  8  03 00 00 00 00 00 00 00 
   310)       934.0  Rx         01FF  8  00 00 00 00 00 00 00 00 
   311)       953.7  Rx         01FF  8  00 00 00 00 00 00 00 00 
   312)       956.3  Rx         0700  8  00 00 00 00 00 00 00 00 
   313)       956.6  Rx         0701  8  0A 0A 00 06 00 00 01 00 
   314)       956.8  Rx         0702  8  00 00 00 00 00 00 00 00 
   315)       973.8  Rx         01FF  8  00 00 00 00 00 00 00 00 
   316)       993.8  Rx         01FF  8  00 00 00 00 00 00 00 00 
   317)       994.1  Rx         0100  8  1B 44 2E 00 64 80 85 03 
   318)       994.3  Rx         0102  8  05 00 00 00 11 02 E4 24 
   319)       994.5  Rx         0103  8  B5 3F 3D 32 97 CD BB E0 
   320)       994.8  Rx         0104  8  B3 81 1F 01 00 00 00 00 
   321)       995.0  Rx         0105  8  81 00 00 00 00 00 01 01 
   322)       995.3  Rx         0108  8  00 00 00 02 00 00 01 00 
   323)       995.5  Rx         0109  8  00 00 00 00 00 00 00 7E 
   324)       995.8  Rx         010A  8  00 00 00 00 00 00 00 00 
   325)       996.0  Rx         010B  8  00 00 FB FF 18 00 6A 0D 
   326)       996.2  Rx         010C  8  00 00 00 00 00 CA 9A 3B 
   327)       996.5  Rx         010D  8  00 00 00 00 00 00 00 00 
   328)       996.8  Rx         010E  8  16 00 1B 00 00 00 00 00 
   329)       997.0  Rx         010F  8  00 00 00 00 00 00 00 00 
   330)       997.2  Rx         0110  8  02 21 84 03 00 10 02 00 
   331)       997.5  Rx         0111  8  00 00 00 00 00 00 00 00 
   332)       997.7  Rx         0112  8  03 00 00 00 00 00 00 00 
   333)       998.0  Rx         0113  8  18 24 01 00 00 01 00 00 
   334)      1013.8  Rx         01FF  8  00 00 00 00 00 00 00 00 
   335)      1033.7  Rx         01FF  8  00 00 00 00 00 00 00 00 
   336)      1040.8  Rx         0700  8  00 00 00 00 00 00 00 00 
   337)      1041.1  Rx         0701  8  0A 0A 00 06 00 00 01 00 
   338)      1041.3  Rx         0702  8  00 00 00 00 00 00 00 00 
   339)      1053.8  Rx         01FF  8  00 00 00 00 00 00 00 00 
   340)      1073.7  Rx         01FF  8  00 00 00 00 00 00 00 00 
   341)      1074.5  Rx         010A  8  00 00 00 00 00 00 00 00 
   342)      1074.7  Rx         010B  8  00 00 FB FF 18 00 6A 0D 
   343)      1075.0  Rx         010C  8  00 00 00 00 00 CA 9A 3B 
   344)      1075.2  Rx         010D  8  00 00 00 00 00 00 00 00 
   345)      1075.4  Rx         010E  8  16 00 1B 00 00 00 00 00 
   346)      1075.7  Rx         010F  8  00 00 00 00 00 00 00 00 
   347)      1075.9  Rx         0110  8  02 21 84 03 00 10 02 00 
   348)      1076.2  Rx         0111  8  00 00 00 00 00 00 00 00 
   349)      1076.5  Rx         0112  8  03 00 00 00 00 00 00 00 
   350)      1094.1  Rx         01FF  8  00 00 00 00 00 00 00 00 
   351)      1094.4  Rx         0100  8  1B 44 2E 00 64 80 83 03 
   352)      1094.6  Rx         0102  8  05 00 00 00 11 02 99 24 
   353)      1094.8  Rx         0103  8  B5 3F 3D 32 97 CD BB E0 
   354)      1095.1  Rx         0104  8  B3 81 1F 01 00 00 00 00 
   355)      1095.4  Rx         0105  8  81 00 00 00 00 00 01 01 
   356)      1095.6  Rx         0108  8  00 00 00 02 00 00 01 00 
   357)      1095.8  Rx         0109  8  00 00 00 00 00 00 00 7E 
   358)      1096.1  Rx         0113  8  18 24 01 00 00 01 00 00 
   359)      1096.3  Rx         0150  8  00 00 00 20 00 00 00 00 
   360)      1096.6  Rx         0151  8  00 00 00 00 1C 15 00 00 
   361)      1096.8  Rx         0152  8  00 00 00 00 00 00 00 00 
   362)      1097.1  Rx         0153  8  15 00 00 00 5F 01 1F 00 
   363)      1097.3  Rx         0154  8  AC 15 00 00 00 00 F2 11 
   364)      1097.5  Rx         0155  8  10 00 C7 03 77 12 FC 12 
   365)      1097.8  Rx         0156  8  00 00 00 00 00 00 65 0A 
   366)      1098.0  Rx         0157  8  00 00 00 00 CC 6A CC 6A 
   367)      1098.3  Rx         0158  8  00 00 00 00 00 00 00 00 
   368)      1098.5  Rx         0159  8  2E 00 00 00 00 00 00 00 
   369)      1113.8  Rx         01FF  8  00 00 00 00 00 00 00 00 
   370)      1116.6  Rx         0700  8  00 00 00 00 00 00 00 00 
   371)      1116.9  Rx         0701  8  0A 0A 00 06 00 00 01 00 
